`timescale 1ns / 1ps

interface axi4_lite_if #(
    parameter DATA_WIDTH = 32,
    parameter ADDR_WIDTH = 5
) (
    input logic aclk,
    input logic aresetn
);

    // Write Address Channel (AW)
    logic [ADDR_WIDTH-1:0]     awaddr;
    logic [2:0]                awprot;
    logic                      awvalid;
    logic                      awready;

    // Write Data Channel (W)
    logic [DATA_WIDTH-1:0]     wdata;
    logic [(DATA_WIDTH/8)-1:0] wstrb;
    logic                      wvalid;
    logic                      wready;

    // Write Response Channel (B)
    logic [1:0]                bresp;
    logic                      bvalid;
    logic                      bready;

    // Read Address Channel (AR)
    logic [ADDR_WIDTH-1:0]     araddr;
    logic [2:0]                arprot;
    logic                      arvalid;
    logic                      arready;

    // Read Data Channel (R)
    logic [DATA_WIDTH-1:0]     rdata;
    logic [1:0]                rresp;
    logic                      rvalid;
    logic                      rready;

    //---------------------------------------------------------
    // PROTOCOL CHECKS (AXI4-Lite Compliance)
    //---------------------------------------------------------
    
    // Immediate protocol checks for Icarus Verilog compatibility.
    // Concurrent SVA examples are kept below for commercial simulators.
    
    always @(posedge aclk) begin
        if (aresetn) begin
            // 1-5: Handshake Stability (VALID must not drop before READY)
            if (awvalid && !awready) assert(awvalid == 1'b1) else $error("[PV] AWVALID dropped before AWREADY");
            if (wvalid  && !wready)  assert(wvalid  == 1'b1) else $error("[PV] WVALID dropped before WREADY");
            if (arvalid && !arready) assert(arvalid == 1'b1) else $error("[PV] ARVALID dropped before ARREADY");
            if (rvalid  && !rready)  assert(rvalid  == 1'b1) else $error("[PV] RVALID dropped before RREADY");
            if (bvalid  && !bready)  assert(bvalid  == 1'b1) else $error("[PV] BVALID dropped before BREADY");

            // 6-10: Signal Stability (Payload must not change during VALID high)
            if (awvalid && !awready) assert($stable(awaddr)) else $error("[PV] AWADDR unstable during handshake");
            if (wvalid  && !wready)  assert($stable(wdata))  else $error("[PV] WDATA unstable during handshake");
            if (arvalid && !arready) assert($stable(araddr)) else $error("[PV] ARADDR unstable during handshake");
            if (bvalid  && !bready)  assert($stable(bresp))  else $error("[PV] BRESP unstable during handshake");
            if (rvalid  && !rready)  assert($stable(rdata))  else $error("[PV] RDATA unstable during handshake");

            // 11-13: Response Legality (AXI-Lite usually OKAY (00) or EXOKAY (01))
            if (bvalid) assert(bresp == 2'b00 || bresp == 2'b01) else $error("[PV] Illegal BRESP value");
            if (rvalid) assert(rresp == 2'b00 || rresp == 2'b01) else $error("[PV] Illegal RRESP value");
            if (wvalid) assert(wstrb != 4'b0000) else $error("[PV] WSTRB cannot be zero during valid write");

            // 14-15: Inter-channel order (BVALID cannot happen without AW/W completion)
            if (bvalid) assert(aresetn) else $error("[PV] BVALID high during reset");
        end else begin
            // 16-20: Reset Integrity (All VALIDs must be low during reset)
            assert(awvalid == 1'b0) else $error("[PV] AWVALID active during reset");
            assert(wvalid  == 1'b0) else $error("[PV] WVALID active during reset");
            assert(arvalid == 1'b0) else $error("[PV] ARVALID active during reset");
            assert(rvalid  == 1'b0) else $error("[PV] RVALID active during reset");
            assert(bvalid  == 1'b0) else $error("[PV] BVALID active during reset");
        end
    end

    /*
    //---------------------------------------------------------
    // INDUSTRY-STANDARD CONCURRENT ASSERTIONS (SVA)
    // Note: Requires commercial simulators (VCS/Questa/Xcelium).
    // Included for portability but commented for open-source flow.
    //---------------------------------------------------------

    // AW Channel: awvalid must be stable until awready
    property p_awvalid_stable;
        @(posedge aclk) disable iff (!aresetn)
        (awvalid && !awready) |=> awvalid;
    endproperty
    assert property (p_awvalid_stable) 
        else $error("SVA ERR: awvalid dropped without awready");
    cover property (p_awvalid_stable);

    // W Channel: wvalid must be stable until wready
    property p_wvalid_stable;
        @(posedge aclk) disable iff (!aresetn)
        (wvalid && !wready) |=> wvalid;
    endproperty
    assert property (p_wvalid_stable)
        else $error("SVA ERR: wvalid dropped without wready");
    cover property (p_wvalid_stable);

    // B Channel: bvalid must be stable until bready
    property p_bvalid_stable;
        @(posedge aclk) disable iff (!aresetn)
        (bvalid && !bready) |=> bvalid;
    endproperty
    assert property (p_bvalid_stable)
        else $error("SVA ERR: bvalid dropped without bready");
    cover property (p_bvalid_stable);

    // AR Channel: arvalid must be stable until arready
    property p_arvalid_stable;
        @(posedge aclk) disable iff (!aresetn)
        (arvalid && !arready) |=> arvalid;
    endproperty
    assert property (p_arvalid_stable) 
        else $error("SVA ERR: arvalid dropped without arready");
    cover property (p_arvalid_stable);

    // R Channel: rvalid must be stable until rready
    property p_rvalid_stable;
        @(posedge aclk) disable iff (!aresetn)
        (rvalid && !rready) |=> rvalid;
    endproperty
    assert property (p_rvalid_stable)
        else $error("SVA ERR: rvalid dropped without rready");
    cover property (p_rvalid_stable);
    */

endinterface
